CITIFILE A.01.01
#Momentum: B.12.00.024 (*) built: Jan 14 2016 
#Momentum Date and Time: Wed Jun 15 10:31:33 2022

NAME Momentum.SP

#  mode: MW    project: proj

#eesof Port[1] P1
#eesof Port[2] P2
#eesof Port[3] P3
#eesof Port[4] R2_P1

CONSTANT NBR_OF_PORTS 4

CONSTANT NORMALIZATION 1

VAR freq MAG 21

DATA S[1,1] RI
DATA S[1,2] RI
DATA S[1,3] RI
DATA S[1,4] RI
DATA S[2,1] RI
DATA S[2,2] RI
DATA S[2,3] RI
DATA S[2,4] RI
DATA S[3,1] RI
DATA S[3,2] RI
DATA S[3,3] RI
DATA S[3,4] RI
DATA S[4,1] RI
DATA S[4,2] RI
DATA S[4,3] RI
DATA S[4,4] RI
DATA S_50[1,1] RI
DATA S_50[1,2] RI
DATA S_50[1,3] RI
DATA S_50[1,4] RI
DATA S_50[2,1] RI
DATA S_50[2,2] RI
DATA S_50[2,3] RI
DATA S_50[2,4] RI
DATA S_50[3,1] RI
DATA S_50[3,2] RI
DATA S_50[3,3] RI
DATA S_50[3,4] RI
DATA S_50[4,1] RI
DATA S_50[4,2] RI
DATA S_50[4,3] RI
DATA S_50[4,4] RI
DATA S_Z0[1,1] RI
DATA S_Z0[1,2] RI
DATA S_Z0[1,3] RI
DATA S_Z0[1,4] RI
DATA S_Z0[2,1] RI
DATA S_Z0[2,2] RI
DATA S_Z0[2,3] RI
DATA S_Z0[2,4] RI
DATA S_Z0[3,1] RI
DATA S_Z0[3,2] RI
DATA S_Z0[3,3] RI
DATA S_Z0[3,4] RI
DATA S_Z0[4,1] RI
DATA S_Z0[4,2] RI
DATA S_Z0[4,3] RI
DATA S_Z0[4,4] RI
DATA GAMMA[1] RI
DATA Z0[1] RI
DATA Z0[2] RI
DATA Z0[3] RI
DATA Z0[4] RI
DATA PORTZ[1] RI
DATA PORTZ[2] RI
DATA PORTZ[3] RI
DATA PORTZ[4] RI

VAR_LIST_BEGIN
	 2000000000
	 2050000000
	 2100000000
	 2150000000
	 2200000000
	 2250000000
	 2300000000
	 2350000000
	 2400000000
	 2450000000
	 2500000000
	 2550000000
	 2600000000
	 2650000000
	 2700000000
	 2750000000
	 2800000000
	 2850000000
	 2900000000
	 2950000000
	 3000000000
VAR_LIST_END

BEGIN
	-0.0111990507,	 0.118191531
	-0.00684785476,	 0.107899513
	-0.00336585859,	 0.0972907347
	-0.000812066893,	 0.086417819
	 0.000807483566,	 0.0753494352
	 0.00147663334,	 0.0641921156
	 0.00116244306,	 0.0530214042
	-0.000110079335,	 0.0418508368
	-0.00237271512,	 0.0308531477
	-0.00556468733,	 0.0200163344
	-0.00977866244,	 0.00949476491
	-0.0149062727,	-0.000671347076
	-0.0209477818,	-0.0103913969
	-0.0278889671,	-0.0195698836
	-0.035659391,	-0.0281629153
	-0.0441806904,	-0.0361042644
	-0.0534657615,	-0.0432877736
	-0.0634429223,	-0.0496729907
	-0.0740098754,	-0.0552167895
	-0.0850835942,	-0.0599119907
	-0.0967117878,	-0.0635469334
END
BEGIN
	-0.222139446,	-0.65811662
	-0.254983994,	-0.646805169
	-0.287251098,	-0.633772381
	-0.318924312,	-0.619010567
	-0.349849684,	-0.602566124
	-0.379940802,	-0.584465662
	-0.409167939,	-0.564705581
	-0.437290645,	-0.543429448
	-0.464317994,	-0.520612484
	-0.490100474,	-0.496367027
	-0.514627104,	-0.470696759
	-0.537727924,	-0.443756272
	-0.559367902,	-0.41557957
	-0.579477402,	-0.386246862
	-0.597984492,	-0.355856594
	-0.614790475,	-0.324556434
	-0.629887666,	-0.292378338
	-0.643221803,	-0.259444703
	-0.654728245,	-0.22588917
	-0.664379611,	-0.191849582
	-0.672205224,	-0.157281083
END
BEGIN
	-0.222168196,	-0.6581106
	-0.254991687,	-0.646806101
	-0.287263022,	-0.633770171
	-0.318932413,	-0.619009299
	-0.349857059,	-0.602562217
	-0.379948628,	-0.584460825
	-0.409167863,	-0.564704252
	-0.437300034,	-0.543417757
	-0.464319892,	-0.520604708
	-0.490094434,	-0.496364685
	-0.514597708,	-0.470723255
	-0.537724789,	-0.443745657
	-0.559361696,	-0.415566735
	-0.579468995,	-0.386234244
	-0.59797238,	-0.355841526
	-0.614779627,	-0.324533929
	-0.629871957,	-0.292363739
	-0.643200289,	-0.259431529
	-0.654705706,	-0.225875163
	-0.664349569,	-0.191843534
	-0.672176039,	-0.157257729
END
BEGIN
	 -2.69012414e-005 ,	 2.23959735e-006 
	 -2.85743386e-005 ,	 5.97163605e-006 
	 -3.26570548e-005 ,	 7.19895756e-006 
	 -3.26470369e-005 ,	 6.39563392e-006 
	 -3.31686728e-005 ,	 8.60304742e-006 
	 -3.3773603e-005 ,	 7.28966238e-006 
	 -3.26376524e-005 ,	 5.20934391e-006 
	 -3.75896588e-005 ,	 9.48436276e-006 
	 -3.75278532e-005 ,	 9.09877791e-006 
	 -3.48665679e-005 ,	 6.21860428e-006 
	 -3.72728777e-005 ,	 1.04230713e-005 
	 -4.14516739e-005 ,	 1.19154277e-005 
	 -4.0934419e-005 ,	 1.37669814e-005 
	 -4.45110099e-005 ,	 1.79555195e-005 
	 -4.28521399e-005 ,	 1.93975641e-005 
	 -4.44781337e-005 ,	 2.2911222e-005 
	 -4.71937613e-005 ,	 2.18986619e-005 
	 -4.66727022e-005 ,	 2.50987383e-005 
	 -4.99540907e-005 ,	 2.9319329e-005 
	 -4.96299787e-005 ,	 2.68445792e-005 
	 -4.85252168e-005 ,	 3.9470481e-005 
END
BEGIN
	-0.222136444,	-0.658119666
	-0.254983334,	-0.646805894
	-0.287252338,	-0.633770653
	-0.318924848,	-0.61900943
	-0.349849718,	-0.602566378
	-0.379941468,	-0.584464593
	-0.409166986,	-0.564708175
	-0.437291781,	-0.543427584
	-0.464318108,	-0.520612715
	-0.490099649,	-0.496369768
	-0.514626349,	-0.470699294
	-0.537727963,	-0.443754417
	-0.559367877,	-0.415579646
	-0.579477156,	-0.386244957
	-0.597984299,	-0.35585639
	-0.614790249,	-0.324552994
	-0.629887444,	-0.292376693
	-0.643222041,	-0.25944491
	-0.654727345,	-0.225887151
	-0.664380703,	-0.191852936
	-0.672204003,	-0.157277797
END
BEGIN
	-0.170957825,	 0.0617965169
	-0.169019652,	 0.0668878465
	-0.16646902,	 0.071747311
	-0.16337173,	 0.0763804217
	-0.159722457,	 0.0806815062
	-0.155580702,	 0.0845898565
	-0.150994342,	 0.0880566071
	-0.145978666,	 0.091029841
	-0.140606664,	 0.0934264035
	-0.134899908,	 0.0952074688
	-0.128988083,	 0.096404203
	-0.12289354,	 0.0969066589
	-0.116681794,	 0.0966957893
	-0.110454794,	 0.0957862022
	-0.10426651,	 0.094122526
	-0.0982025801,	 0.0916875757
	-0.0923441002,	 0.0885194715
	-0.0867806509,	 0.0846013084
	-0.081577053,	 0.0799461773
	-0.0768324331,	 0.0745530944
	-0.0726414926,	 0.0685204636
END
BEGIN
	 0.0949822089,	-0.148377581
	 0.0949647303,	-0.141063626
	 0.0956463429,	-0.133964175
	 0.0969994862,	-0.12714189
	 0.0990084701,	-0.120645252
	 0.101635008,	-0.11453748
	 0.104832837,	-0.108852513
	 0.108606032,	-0.103660299
	 0.112851613,	-0.0989556877
	 0.117567668,	-0.0948124814
	 0.122680681,	-0.0912590611
	 0.128141355,	-0.0883220396
	 0.133885781,	-0.0860033759
	 0.139865147,	-0.0843306605
	 0.146018764,	-0.0833128325
	 0.152292772,	-0.0829542953
	 0.158612511,	-0.0832291196
	 0.164946569,	-0.0841374978
	 0.171237838,	-0.0856692272
	 0.177436409,	-0.0878101345
	 0.183505149,	-0.090503608
END
BEGIN
	 0.635449955,	-0.189281682
	 0.632680235,	-0.200687012
	 0.62966666,	-0.211980717
	 0.62643178,	-0.223197806
	 0.62296174,	-0.234339409
	 0.61926531,	-0.245413977
	 0.615337727,	-0.25643541
	 0.611178974,	-0.267405562
	 0.606767665,	-0.278331325
	 0.602101342,	-0.289221946
	 0.59718443,	-0.300096489
	 0.591999081,	-0.310947076
	 0.586524186,	-0.32178195
	 0.580754508,	-0.332616889
	 0.574672089,	-0.343449555
	 0.568257289,	-0.354283617
	 0.561477187,	-0.365132148
	 0.554327028,	-0.375992686
	 0.546761463,	-0.386870319
	 0.538758585,	-0.397766715
	 0.530285675,	-0.40868743
END
BEGIN
	-0.222171199,	-0.658107554
	-0.254992347,	-0.646805376
	-0.287261783,	-0.633771898
	-0.318931877,	-0.619010436
	-0.349857024,	-0.602561962
	-0.379947961,	-0.584461893
	-0.409168815,	-0.564701657
	-0.437298898,	-0.543419622
	-0.464319779,	-0.520604477
	-0.490095259,	-0.496361944
	-0.514598462,	-0.47072072
	-0.537724749,	-0.443747511
	-0.559361721,	-0.415566659
	-0.579469241,	-0.386236149
	-0.597972572,	-0.35584173
	-0.614779854,	-0.324537369
	-0.629872178,	-0.292365383
	-0.643200051,	-0.259431321
	-0.654706606,	-0.225877182
	-0.664348477,	-0.191840181
	-0.67217726,	-0.157261015
END
BEGIN
	 0.0949862056,	-0.148374564
	 0.0949656547,	-0.14106294
	 0.0956442165,	-0.133965486
	 0.0969981263,	-0.127142468
	 0.0990087685,	-0.120645295
	 0.101633776,	-0.11453829
	 0.104835798,	-0.108851235
	 0.108603991,	-0.103661803
	 0.112851894,	-0.0989557863
	 0.11757063,	-0.0948110675
	 0.122683355,	-0.0912576835
	 0.128139327,	-0.08832254
	 0.133885857,	-0.0860033272
	 0.139863059,	-0.0843310044
	 0.146018486,	-0.0833127059
	 0.152289241,	-0.0829553902
	 0.158610822,	-0.0832295909
	 0.16494687,	-0.0841376271
	 0.171235583,	-0.0856693838
	 0.177439867,	-0.0878093701
	 0.183501779,	-0.0905043697
END
BEGIN
	-0.170916182,	 0.0618479436
	-0.168991753,	 0.0669399645
	-0.166441981,	 0.0718122418
	-0.163338281,	 0.0764379214
	-0.159684278,	 0.0807391796
	-0.155540586,	 0.0846452776
	-0.150941968,	 0.0880945718
	-0.145930727,	 0.0910904444
	-0.140551096,	 0.0934747401
	-0.134839733,	 0.0952356508
	-0.128934322,	 0.0964230614
	-0.122832281,	 0.0969494232
	-0.116615832,	 0.096735166
	-0.110386787,	 0.0958306233
	-0.10419657,	 0.0941612742
	-0.0981359655,	 0.0917354837
	-0.0922675755,	 0.088552042
	-0.0867003152,	 0.0846315688
	-0.0814941238,	 0.0799771579
	-0.0767388443,	 0.0745639781
	-0.0725592375,	 0.0685604324
END
BEGIN
	-0.635450873,	 0.189295307
	-0.63268891,	 0.200682844
	-0.629678081,	 0.211982443
	-0.62644499,	 0.223196148
	-0.622975581,	 0.234338659
	-0.619281212,	 0.24541594
	-0.615355783,	 0.256429636
	-0.611197869,	 0.267415242
	-0.606789419,	 0.278334061
	-0.602126089,	 0.289217857
	-0.597223957,	 0.300059571
	-0.59202755,	 0.310955034
	-0.586553327,	 0.321791924
	-0.580787236,	 0.332627549
	-0.574705651,	 0.343463033
	-0.568290524,	 0.354308067
	-0.561513897,	 0.365151451
	-0.554366517,	 0.376012282
	-0.546803117,	 0.386893363
	-0.538802678,	 0.397786588
	-0.530327768,	 0.408724648
END
BEGIN
	 -2.97273031e-005 ,	 6.50358096e-006 
	 -2.91662589e-005 ,	 6.98910784e-006 
	 -3.16801024e-005 ,	 4.83182834e-006 
	 -3.23589495e-005 ,	 4.90371548e-006 
	 -3.304631e-005 ,	 8.88938218e-006 
	 -3.33640856e-005 ,	 5.81388162e-006 
	 -3.27925815e-005 ,	 8.57588239e-006 
	 -3.70006772e-005 ,	 6.88081651e-006 
	 -3.73007547e-005 ,	 9.31866231e-006 
	 -3.46179762e-005 ,	 9.72728748e-006 
	 -3.6969578e-005 ,	 1.366633e-005 
	 -4.23022967e-005 ,	 9.79126374e-006 
	 -4.09236785e-005 ,	 1.38664229e-005 
	 -4.57948567e-005 ,	 1.59543606e-005 
	 -4.3178353e-005 ,	 1.92779018e-005 
	 -4.67105394e-005 ,	 1.9263739e-005 
	 -4.84209955e-005 ,	 2.02442715e-005 
	 -4.62882921e-005 ,	 2.51737711e-005 
	 -5.22143116e-005 ,	 2.77628833e-005 
	 -4.62405019e-005 ,	 2.96122173e-005 
	 -5.20598369e-005 ,	 3.69446549e-005 
END
BEGIN
	 0.635452578,	-0.189279739
	 0.632680849,	-0.20068658
	 0.62966524,	-0.211981516
	 0.626430873,	-0.223198133
	 0.622961932,	-0.23433945
	 0.619264464,	-0.245414435
	 0.61533973,	-0.256434772
	 0.611177542,	-0.267406385
	 0.606767838,	-0.278331412
	 0.60210338,	-0.289221309
	 0.597186286,	-0.300095875
	 0.591997729,	-0.310947173
	 0.58652424,	-0.321781928
	 0.580753138,	-0.33261684
	 0.574671931,	-0.343449437
	 0.568254906,	-0.354283792
	 0.561476057,	-0.365132183
	 0.554327194,	-0.375992816
	 0.546760038,	-0.386870028
	 0.538760856,	-0.39776687
	 0.530283464,	-0.408687255
END
BEGIN
	-0.635448249,	 0.18929725
	-0.632688296,	 0.200683276
	-0.629679501,	 0.211981644
	-0.626445896,	 0.22319582
	-0.622975389,	 0.234338618
	-0.619282058,	 0.245415481
	-0.61535378,	 0.256430273
	-0.611199302,	 0.26741442
	-0.606789245,	 0.278333974
	-0.602124052,	 0.289218494
	-0.597222101,	 0.300060184
	-0.592028903,	 0.310954937
	-0.586553273,	 0.321791946
	-0.580788606,	 0.332627598
	-0.574705809,	 0.343463151
	-0.568292906,	 0.354307892
	-0.561515027,	 0.365151417
	-0.554366351,	 0.376012152
	-0.546804541,	 0.386893654
	-0.538800407,	 0.397786433
	-0.530329978,	 0.408724823
END
BEGIN
	 0.332808963,	 0.0324895474
	 0.330611781,	 0.0200094609
	 0.328085931,	 0.00775883435
	 0.325192789,	-0.00431891296
	 0.321955475,	-0.0162289235
	 0.31834954,	-0.0280023824
	 0.314369811,	-0.0396587284
	 0.310008366,	-0.0512051186
	 0.305274732,	-0.0626572859
	 0.300151083,	-0.0740251754
	 0.294609657,	-0.0853198811
	 0.288612075,	-0.0965740947
	 0.282185485,	-0.107770451
	 0.275275461,	-0.118934229
	 0.267855025,	-0.130073185
	 0.259885767,	-0.141203939
	 0.251360502,	-0.152316773
	 0.242190834,	-0.163432127
	 0.232363979,	-0.174543911
	 0.221795624,	-0.185663751
	 0.210423813,	-0.196772072
END
BEGIN
	-0.0111990507,	 0.118191531
	-0.00684785476,	 0.107899513
	-0.00336585859,	 0.0972907347
	-0.000812066893,	 0.086417819
	 0.000807483566,	 0.0753494352
	 0.00147663334,	 0.0641921156
	 0.00116244306,	 0.0530214042
	-0.000110079335,	 0.0418508368
	-0.00237271512,	 0.0308531477
	-0.00556468733,	 0.0200163344
	-0.00977866244,	 0.00949476491
	-0.0149062727,	-0.000671347076
	-0.0209477818,	-0.0103913969
	-0.0278889671,	-0.0195698836
	-0.035659391,	-0.0281629153
	-0.0441806904,	-0.0361042644
	-0.0534657615,	-0.0432877736
	-0.0634429223,	-0.0496729907
	-0.0740098754,	-0.0552167895
	-0.0850835942,	-0.0599119907
	-0.0967117878,	-0.0635469334
END
BEGIN
	-0.222139446,	-0.65811662
	-0.254983994,	-0.646805169
	-0.287251098,	-0.633772381
	-0.318924312,	-0.619010567
	-0.349849684,	-0.602566124
	-0.379940802,	-0.584465662
	-0.409167939,	-0.564705581
	-0.437290645,	-0.543429448
	-0.464317994,	-0.520612484
	-0.490100474,	-0.496367027
	-0.514627104,	-0.470696759
	-0.537727924,	-0.443756272
	-0.559367902,	-0.41557957
	-0.579477402,	-0.386246862
	-0.597984492,	-0.355856594
	-0.614790475,	-0.324556434
	-0.629887666,	-0.292378338
	-0.643221803,	-0.259444703
	-0.654728245,	-0.22588917
	-0.664379611,	-0.191849582
	-0.672205224,	-0.157281083
END
BEGIN
	-0.222168196,	-0.6581106
	-0.254991687,	-0.646806101
	-0.287263022,	-0.633770171
	-0.318932413,	-0.619009299
	-0.349857059,	-0.602562217
	-0.379948628,	-0.584460825
	-0.409167863,	-0.564704252
	-0.437300034,	-0.543417757
	-0.464319892,	-0.520604708
	-0.490094434,	-0.496364685
	-0.514597708,	-0.470723255
	-0.537724789,	-0.443745657
	-0.559361696,	-0.415566735
	-0.579468995,	-0.386234244
	-0.59797238,	-0.355841526
	-0.614779627,	-0.324533929
	-0.629871957,	-0.292363739
	-0.643200289,	-0.259431529
	-0.654705706,	-0.225875163
	-0.664349569,	-0.191843534
	-0.672176039,	-0.157257729
END
BEGIN
	 -2.69012414e-005 ,	 2.23959735e-006 
	 -2.85743386e-005 ,	 5.97163605e-006 
	 -3.26570548e-005 ,	 7.19895756e-006 
	 -3.26470369e-005 ,	 6.39563392e-006 
	 -3.31686728e-005 ,	 8.60304742e-006 
	 -3.3773603e-005 ,	 7.28966238e-006 
	 -3.26376524e-005 ,	 5.20934391e-006 
	 -3.75896588e-005 ,	 9.48436276e-006 
	 -3.75278532e-005 ,	 9.09877791e-006 
	 -3.48665679e-005 ,	 6.21860428e-006 
	 -3.72728777e-005 ,	 1.04230713e-005 
	 -4.14516739e-005 ,	 1.19154277e-005 
	 -4.0934419e-005 ,	 1.37669814e-005 
	 -4.45110099e-005 ,	 1.79555195e-005 
	 -4.28521399e-005 ,	 1.93975641e-005 
	 -4.44781337e-005 ,	 2.2911222e-005 
	 -4.71937613e-005 ,	 2.18986619e-005 
	 -4.66727022e-005 ,	 2.50987383e-005 
	 -4.99540907e-005 ,	 2.9319329e-005 
	 -4.96299787e-005 ,	 2.68445792e-005 
	 -4.85252168e-005 ,	 3.9470481e-005 
END
BEGIN
	-0.222136444,	-0.658119666
	-0.254983334,	-0.646805894
	-0.287252338,	-0.633770653
	-0.318924848,	-0.61900943
	-0.349849718,	-0.602566378
	-0.379941468,	-0.584464593
	-0.409166986,	-0.564708175
	-0.437291781,	-0.543427584
	-0.464318108,	-0.520612715
	-0.490099649,	-0.496369768
	-0.514626349,	-0.470699294
	-0.537727963,	-0.443754417
	-0.559367877,	-0.415579646
	-0.579477156,	-0.386244957
	-0.597984299,	-0.35585639
	-0.614790249,	-0.324552994
	-0.629887444,	-0.292376693
	-0.643222041,	-0.25944491
	-0.654727345,	-0.225887151
	-0.664380703,	-0.191852936
	-0.672204003,	-0.157277797
END
BEGIN
	-0.170957825,	 0.0617965169
	-0.169019652,	 0.0668878465
	-0.16646902,	 0.071747311
	-0.16337173,	 0.0763804217
	-0.159722457,	 0.0806815062
	-0.155580702,	 0.0845898565
	-0.150994342,	 0.0880566071
	-0.145978666,	 0.091029841
	-0.140606664,	 0.0934264035
	-0.134899908,	 0.0952074688
	-0.128988083,	 0.096404203
	-0.12289354,	 0.0969066589
	-0.116681794,	 0.0966957893
	-0.110454794,	 0.0957862022
	-0.10426651,	 0.094122526
	-0.0982025801,	 0.0916875757
	-0.0923441002,	 0.0885194715
	-0.0867806509,	 0.0846013084
	-0.081577053,	 0.0799461773
	-0.0768324331,	 0.0745530944
	-0.0726414926,	 0.0685204636
END
BEGIN
	 0.0949822089,	-0.148377581
	 0.0949647303,	-0.141063626
	 0.0956463429,	-0.133964175
	 0.0969994862,	-0.12714189
	 0.0990084701,	-0.120645252
	 0.101635008,	-0.11453748
	 0.104832837,	-0.108852513
	 0.108606032,	-0.103660299
	 0.112851613,	-0.0989556877
	 0.117567668,	-0.0948124814
	 0.122680681,	-0.0912590611
	 0.128141355,	-0.0883220396
	 0.133885781,	-0.0860033759
	 0.139865147,	-0.0843306605
	 0.146018764,	-0.0833128325
	 0.152292772,	-0.0829542953
	 0.158612511,	-0.0832291196
	 0.164946569,	-0.0841374978
	 0.171237838,	-0.0856692272
	 0.177436409,	-0.0878101345
	 0.183505149,	-0.090503608
END
BEGIN
	 0.635449955,	-0.189281682
	 0.632680235,	-0.200687012
	 0.62966666,	-0.211980717
	 0.62643178,	-0.223197806
	 0.62296174,	-0.234339409
	 0.61926531,	-0.245413977
	 0.615337727,	-0.25643541
	 0.611178974,	-0.267405562
	 0.606767665,	-0.278331325
	 0.602101342,	-0.289221946
	 0.59718443,	-0.300096489
	 0.591999081,	-0.310947076
	 0.586524186,	-0.32178195
	 0.580754508,	-0.332616889
	 0.574672089,	-0.343449555
	 0.568257289,	-0.354283617
	 0.561477187,	-0.365132148
	 0.554327028,	-0.375992686
	 0.546761463,	-0.386870319
	 0.538758585,	-0.397766715
	 0.530285675,	-0.40868743
END
BEGIN
	-0.222171199,	-0.658107554
	-0.254992347,	-0.646805376
	-0.287261783,	-0.633771898
	-0.318931877,	-0.619010436
	-0.349857024,	-0.602561962
	-0.379947961,	-0.584461893
	-0.409168815,	-0.564701657
	-0.437298898,	-0.543419622
	-0.464319779,	-0.520604477
	-0.490095259,	-0.496361944
	-0.514598462,	-0.47072072
	-0.537724749,	-0.443747511
	-0.559361721,	-0.415566659
	-0.579469241,	-0.386236149
	-0.597972572,	-0.35584173
	-0.614779854,	-0.324537369
	-0.629872178,	-0.292365383
	-0.643200051,	-0.259431321
	-0.654706606,	-0.225877182
	-0.664348477,	-0.191840181
	-0.67217726,	-0.157261015
END
BEGIN
	 0.0949862056,	-0.148374564
	 0.0949656547,	-0.14106294
	 0.0956442165,	-0.133965486
	 0.0969981263,	-0.127142468
	 0.0990087685,	-0.120645295
	 0.101633776,	-0.11453829
	 0.104835798,	-0.108851235
	 0.108603991,	-0.103661803
	 0.112851894,	-0.0989557863
	 0.11757063,	-0.0948110675
	 0.122683355,	-0.0912576835
	 0.128139327,	-0.08832254
	 0.133885857,	-0.0860033272
	 0.139863059,	-0.0843310044
	 0.146018486,	-0.0833127059
	 0.152289241,	-0.0829553902
	 0.158610822,	-0.0832295909
	 0.16494687,	-0.0841376271
	 0.171235583,	-0.0856693838
	 0.177439867,	-0.0878093701
	 0.183501779,	-0.0905043697
END
BEGIN
	-0.170916182,	 0.0618479436
	-0.168991753,	 0.0669399645
	-0.166441981,	 0.0718122418
	-0.163338281,	 0.0764379214
	-0.159684278,	 0.0807391796
	-0.155540586,	 0.0846452776
	-0.150941968,	 0.0880945718
	-0.145930727,	 0.0910904444
	-0.140551096,	 0.0934747401
	-0.134839733,	 0.0952356508
	-0.128934322,	 0.0964230614
	-0.122832281,	 0.0969494232
	-0.116615832,	 0.096735166
	-0.110386787,	 0.0958306233
	-0.10419657,	 0.0941612742
	-0.0981359655,	 0.0917354837
	-0.0922675755,	 0.088552042
	-0.0867003152,	 0.0846315688
	-0.0814941238,	 0.0799771579
	-0.0767388443,	 0.0745639781
	-0.0725592375,	 0.0685604324
END
BEGIN
	-0.635450873,	 0.189295307
	-0.63268891,	 0.200682844
	-0.629678081,	 0.211982443
	-0.62644499,	 0.223196148
	-0.622975581,	 0.234338659
	-0.619281212,	 0.24541594
	-0.615355783,	 0.256429636
	-0.611197869,	 0.267415242
	-0.606789419,	 0.278334061
	-0.602126089,	 0.289217857
	-0.597223957,	 0.300059571
	-0.59202755,	 0.310955034
	-0.586553327,	 0.321791924
	-0.580787236,	 0.332627549
	-0.574705651,	 0.343463033
	-0.568290524,	 0.354308067
	-0.561513897,	 0.365151451
	-0.554366517,	 0.376012282
	-0.546803117,	 0.386893363
	-0.538802678,	 0.397786588
	-0.530327768,	 0.408724648
END
BEGIN
	 -2.97273031e-005 ,	 6.50358096e-006 
	 -2.91662589e-005 ,	 6.98910784e-006 
	 -3.16801024e-005 ,	 4.83182834e-006 
	 -3.23589495e-005 ,	 4.90371548e-006 
	 -3.304631e-005 ,	 8.88938218e-006 
	 -3.33640856e-005 ,	 5.81388162e-006 
	 -3.27925815e-005 ,	 8.57588239e-006 
	 -3.70006772e-005 ,	 6.88081651e-006 
	 -3.73007547e-005 ,	 9.31866231e-006 
	 -3.46179762e-005 ,	 9.72728748e-006 
	 -3.6969578e-005 ,	 1.366633e-005 
	 -4.23022967e-005 ,	 9.79126374e-006 
	 -4.09236785e-005 ,	 1.38664229e-005 
	 -4.57948567e-005 ,	 1.59543606e-005 
	 -4.3178353e-005 ,	 1.92779018e-005 
	 -4.67105394e-005 ,	 1.9263739e-005 
	 -4.84209955e-005 ,	 2.02442715e-005 
	 -4.62882921e-005 ,	 2.51737711e-005 
	 -5.22143116e-005 ,	 2.77628833e-005 
	 -4.62405019e-005 ,	 2.96122173e-005 
