CITIFILE A.01.01
#Momentum: B.12.00.024 (*) built: Jan 14 2016 
#Momentum Date and Time: Sat Jun 29 17:07:14 2019

NAME Momentum.SP

#  mode: RF    reference: S_50

#eesof Port[1] P2
#eesof Port[2] P3
#eesof Port[3] P4
#eesof Port[4] P5
#eesof Port[5] P6

CONSTANT NBR_OF_PORTS 5

CONSTANT NORMALIZATION 1

VAR freq MAG 13

DATA S[1,1] RI
DATA S[1,2] RI
DATA S[1,3] RI
DATA S[1,4] RI
DATA S[1,5] RI
DATA S[2,1] RI
DATA S[2,2] RI
DATA S[2,3] RI
DATA S[2,4] RI
DATA S[2,5] RI
DATA S[3,1] RI
DATA S[3,2] RI
DATA S[3,3] RI
DATA S[3,4] RI
DATA S[3,5] RI
DATA S[4,1] RI
DATA S[4,2] RI
DATA S[4,3] RI
DATA S[4,4] RI
DATA S[4,5] RI
DATA S[5,1] RI
DATA S[5,2] RI
DATA S[5,3] RI
DATA S[5,4] RI
DATA S[5,5] RI
DATA PORTZ[1] RI
DATA PORTZ[2] RI
DATA PORTZ[3] RI
DATA PORTZ[4] RI
DATA PORTZ[5] RI

VAR_LIST_BEGIN
	 2400000000
	 2408333333
	 2416666667
	 2425000000
	 2433333333
	 2441666667
	 2450000000
	 2458333334
	 2466666667
	 2475000000
	 2483333334
	 2491666667
	 2500000000
VAR_LIST_END

BEGIN
	 0.57414,	 0.63005
	 0.57964,	 0.62631
	 0.58508,	 0.62255
	 0.59044,	 0.61876
	 0.59572,	 0.61496
	 0.60094,	 0.61112
	 0.6061,	 0.60727
	 0.61119,	 0.60339
	 0.61621,	 0.5995
	 0.62118,	 0.59558
	 0.62609,	 0.59164
	 0.63094,	 0.58768
	 0.63573,	 0.58371
END
BEGIN
	 0.008528,	-0.27359
	 0.0077146,	-0.2727
	 0.0069111,	-0.27181
	 0.0061172,	-0.27092
	 0.0053328,	-0.27004
	 0.0045578,	-0.26916
	 0.0037919,	-0.26829
	 0.0030351,	-0.26742
	 0.0022872,	-0.26656
	 0.0015481,	-0.2657
	 0.00081764,	-0.26485
	 9.5682e-005,	-0.264
	-0.00061789,	-0.26315
END
BEGIN
	 0.0081154,	-0.2783
	 0.0072674,	-0.27743
	 0.0064293,	-0.27656
	 0.0056008,	-0.2757
	 0.0047818,	-0.27484
	 0.0039723,	-0.27399
	 0.003172,	-0.27314
	 0.0023808,	-0.2723
	 0.0015985,	-0.27146
	 0.00082515,	-0.27062
	 6.0487e-005,	-0.26979
	-0.0006956,	-0.26896
	-0.0014432,	-0.26813
END
BEGIN
	 0.20924,	-0.10051
	 0.208,	-0.10137
	 0.20676,	-0.10223
	 0.20552,	-0.10309
	 0.20427,	-0.10396
	 0.20303,	-0.10483
	 0.20178,	-0.10569
	 0.20053,	-0.10656
	 0.19928,	-0.10744
	 0.19802,	-0.10831
	 0.19677,	-0.10918
	 0.19551,	-0.11006
	 0.19426,	-0.11094
END
BEGIN
	 0.20981,	-0.10487
	 0.20853,	-0.10577
	 0.20724,	-0.10666
	 0.20595,	-0.10755
	 0.20466,	-0.10845
	 0.20337,	-0.10934
	 0.20208,	-0.11024
	 0.20078,	-0.11114
	 0.19948,	-0.11204
	 0.19819,	-0.11295
	 0.19688,	-0.11385
	 0.19558,	-0.11476
	 0.19428,	-0.11566
END
BEGIN
	 0.008528,	-0.27359
	 0.0077146,	-0.2727
	 0.0069111,	-0.27181
	 0.0061172,	-0.27092
	 0.0053328,	-0.27004
	 0.0045578,	-0.26916
	 0.0037919,	-0.26829
	 0.0030351,	-0.26742
	 0.0022872,	-0.26656
	 0.0015481,	-0.2657
	 0.00081764,	-0.26485
	 9.5682e-005,	-0.264
	-0.00061789,	-0.26315
END
BEGIN
	-0.049128,	-0.16701
	-0.051182,	-0.16903
	-0.053255,	-0.17106
	-0.055345,	-0.1731
	-0.057452,	-0.17514
	-0.059575,	-0.17719
	-0.061712,	-0.17924
	-0.063863,	-0.18129
	-0.066026,	-0.18335
	-0.068201,	-0.18541
	-0.070387,	-0.18748
	-0.072581,	-0.18955
	-0.074782,	-0.19162
END
BEGIN
	 0.061281,	 0.044847
	 0.062774,	 0.045295
	 0.06428,	 0.045705
	 0.065799,	 0.046076
	 0.067332,	 0.046408
	 0.06888,	 0.046703
	 0.070441,	 0.04696
	 0.072017,	 0.047179
	 0.073608,	 0.047359
	 0.075213,	 0.0475
	 0.076834,	 0.047603
	 0.07847,	 0.047665
	 0.080122,	 0.047687
END
BEGIN
	 0.81748,	-0.08726
	 0.81581,	-0.088699
	 0.81411,	-0.090092
	 0.81238,	-0.091439
	 0.81061,	-0.09274
	 0.8088,	-0.093996
	 0.80696,	-0.095207
	 0.80509,	-0.096373
	 0.80319,	-0.097495
	 0.80125,	-0.098572
	 0.79928,	-0.099605
	 0.79729,	-0.10059
	 0.79526,	-0.10154
END
BEGIN
	 0.01802,	 0.45154
	 0.019879,	 0.45353
	 0.021729,	 0.45555
	 0.023569,	 0.45757
	 0.0254,	 0.4596
	 0.02722,	 0.46165
	 0.02903,	 0.4637
	 0.03083,	 0.46576
	 0.032619,	 0.46783
	 0.034399,	 0.46991
	 0.036168,	 0.47199
	 0.037928,	 0.47407
	 0.039678,	 0.47616
END
BEGIN
	 0.0081154,	-0.2783
	 0.0072674,	-0.27743
	 0.0064293,	-0.27656
	 0.0056008,	-0.2757
	 0.0047818,	-0.27484
	 0.0039723,	-0.27399
	 0.003172,	-0.27314
	 0.0023808,	-0.2723
	 0.0015985,	-0.27146
	 0.00082515,	-0.27062
	 6.0487e-005,	-0.26979
	-0.0006956,	-0.26896
	-0.0014432,	-0.26813
END
BEGIN
	 0.061281,	 0.044847
	 0.062774,	 0.045295
	 0.06428,	 0.045705
	 0.065799,	 0.046076
	 0.067332,	 0.046408
	 0.06888,	 0.046703
	 0.070441,	 0.04696
	 0.072017,	 0.047179
	 0.073608,	 0.047359
	 0.075213,	 0.0475
	 0.076834,	 0.047603
	 0.07847,	 0.047665
	 0.080122,	 0.047687
END
BEGIN
	-0.05062,	-0.16436
	-0.05277,	-0.16635
	-0.054919,	-0.16835
	-0.057066,	-0.17036
	-0.059211,	-0.17237
	-0.061354,	-0.1744
	-0.063496,	-0.17643
	-0.065636,	-0.17847
	-0.067774,	-0.18052
	-0.069911,	-0.18258
	-0.072045,	-0.18465
	-0.074178,	-0.18673
	-0.076308,	-0.18881
END
BEGIN
	 0.018964,	 0.45091
	 0.020825,	 0.4529
	 0.022677,	 0.45491
	 0.024519,	 0.45692
	 0.026352,	 0.45895
	 0.028174,	 0.46099
	 0.029987,	 0.46304
	 0.031789,	 0.4651
	 0.033582,	 0.46716
	 0.035364,	 0.46923
	 0.037137,	 0.47131
	 0.0389,	 0.47339
	 0.040654,	 0.47547
END
BEGIN
	 0.81676,	-0.086421
	 0.81511,	-0.087848
	 0.81341,	-0.089228
	 0.81168,	-0.090563
	 0.80992,	-0.091852
	 0.80812,	-0.093095
	 0.80628,	-0.094293
	 0.80442,	-0.095446
	 0.80252,	-0.096554
	 0.80059,	-0.097617
	 0.79863,	-0.098637
	 0.79664,	-0.099613
	 0.79463,	-0.10054
END
BEGIN
	 0.20924,	-0.10051
	 0.208,	-0.10137
	 0.20676,	-0.10223
	 0.20552,	-0.10309
	 0.20427,	-0.10396
	 0.20303,	-0.10483
	 0.20178,	-0.10569
	 0.20053,	-0.10656
	 0.19928,	-0.10744
	 0.19802,	-0.10831
	 0.19677,	-0.10918
	 0.19551,	-0.11006
	 0.19426,	-0.11094
END
BEGIN
	 0.81748,	-0.08726
	 0.81581,	-0.088699
	 0.81411,	-0.090092
	 0.81238,	-0.091439
	 0.81061,	-0.09274
	 0.8088,	-0.093996
	 0.80696,	-0.095207
	 0.80509,	-0.096373
	 0.80319,	-0.097495
	 0.80125,	-0.098572
	 0.79928,	-0.099605
	 0.79729,	-0.10059
	 0.79526,	-0.10154
END
BEGIN
	 0.018964,	 0.45091
	 0.020825,	 0.4529
	 0.022677,	 0.45491
	 0.024519,	 0.45692
	 0.026352,	 0.45895
	 0.028174,	 0.46099
	 0.029987,	 0.46304
	 0.031789,	 0.4651
	 0.033582,	 0.46716
	 0.035364,	 0.46923
	 0.037137,	 0.47131
	 0.0389,	 0.47339
	 0.040654,	 0.47547
END
BEGIN
	-0.04868,	-0.20609
	-0.049404,	-0.2072
	-0.05012,	-0.20831
	-0.050827,	-0.20942
	-0.051528,	-0.21054
	-0.05222,	-0.21166
	-0.052904,	-0.21278
	-0.05358,	-0.2139
	-0.054248,	-0.21503
	-0.054908,	-0.21616
	-0.055559,	-0.21729
	-0.056202,	-0.21842
	-0.056837,	-0.21955
END
BEGIN
	 0.11875,	-0.030693
	 0.12088,	-0.029248
	 0.12304,	-0.027826
	 0.12524,	-0.026428
	 0.12746,	-0.025053
	 0.12972,	-0.023702
	 0.13201,	-0.022374
	 0.13433,	-0.02107
	 0.13668,	-0.019788
	 0.13906,	-0.018528
	 0.14146,	-0.017291
	 0.1439,	-0.016076
	 0.14637,	-0.014883
END
BEGIN
	 0.20981,	-0.10487
	 0.20853,	-0.10577
	 0.20724,	-0.10666
	 0.20595,	-0.10755
	 0.20466,	-0.10845
	 0.20337,	-0.10934
	 0.20208,	-0.11024
	 0.20078,	-0.11114
	 0.19948,	-0.11204
	 0.19819,	-0.11295
	 0.19688,	-0.11385
	 0.19558,	-0.11476
	 0.19428,	-0.11566
END
BEGIN
	 0.01802,	 0.45154
	 0.019879,	 0.45353
	 0.021729,	 0.45555
	 0.023569,	 0.45757
	 0.0254,	 0.4596
	 0.02722,	 0.46165
	 0.02903,	 0.4637
	 0.03083,	 0.46576
	 0.032619,	 0.46783
	 0.034399,	 0.46991
	 0.036168,	 0.47199
	 0.037928,	 0.47407
	 0.039678,	 0.47616
END
BEGIN
	 0.81676,	-0.086421
	 0.81511,	-0.087848
	 0.81341,	-0.089228
	 0.81168,	-0.090563
	 0.80992,	-0.091852
	 0.80812,	-0.093095
	 0.80628,	-0.094293
	 0.80442,	-0.095446
	 0.80252,	-0.096554
	 0.80059,	-0.097617
	 0.79863,	-0.098637
	 0.79664,	-0.099613
	 0.79463,	-0.10054
END
BEGIN
	 0.11875,	-0.030693
	 0.12088,	-0.029248
	 0.12304,	-0.027826
	 0.12524,	-0.026428
	 0.12746,	-0.025053
	 0.12972,	-0.023702
	 0.13201,	-0.022374
	 0.13433,	-0.02107
	 0.13668,	-0.019788
	 0.13906,	-0.018528
	 0.14146,	-0.017291
	 0.1439,	-0.016076
	 0.14637,	-0.014883
END
BEGIN
	-0.048593,	-0.20523
	-0.049307,	-0.20633
	-0.050012,	-0.20744
	-0.05071,	-0.20854
	-0.0514,	-0.20965
	-0.052082,	-0.21076
	-0.052755,	-0.21188
	-0.05342,	-0.21299
	-0.054077,	-0.21411
	-0.054725,	-0.21522
	-0.055365,	-0.21634
	-0.055996,	-0.21746
	-0.056619,	-0.21859
END
BEGIN
	 50 ,	 0 
	 50 ,	 0 
	 50 ,	 0 
	 50 ,	 0 
	 50 ,	 0 
	 50 ,	 0 
	 50 ,	 0 
	 50 ,	 0 
	 50 ,	 0 
	 50 ,	 0 
	 50 ,	 0 
	 50 ,	 0 
	 50 ,	 0 
END
BEGIN
	 50 ,	 0 
	 50 ,	 0 
	 50 ,	 0 
	 50 ,	 0 
	 50 ,	 0 
	 50 ,	 0 
	 50 ,	 0 
	 50 ,	 0 
	 50 ,	 0 
	 50 ,	 0 
	 50 ,	 0 
	 50 ,	 0 
	 50 ,	 0 
END
BEGIN
	 50 ,	 0 
	 50 ,	 0 
	 50 ,	 0 
	 50 ,	 0 
	 50 ,	 0 
	 50 ,	 0 
	 50 ,	 0 
	 50 ,	 0 
	 50 ,	 0 
	 50 ,	 0 
	 50 ,	 0 
	 50 ,	 0 
	 50 ,	 0 
END
BEGIN
	 50 ,	 0 
	 50 ,	 0 
	 50 ,	 0 
	 50 ,	 0 
	 50 ,	 0 
	 50 ,	 0 
	 50 ,	 0 
	 50 ,	 0 
	 50 ,	 0 
	 50 ,	 0 
	 50 ,	 0 
	 50 ,	 0 
	 50 ,	 0 
END
BEGIN
	 50 ,	 0 
	 50 ,	 0 
	 50 ,	 0 
	 50 ,	 0 
	 50 ,	 0 
	 50 ,	 0 
	 50 ,	 0 
	 50 ,	 0 
	 50 ,	 0 
	 50 ,	 0 
	 50 ,	 0 
	 50 ,	 0 
	 50 ,	 0 
END
