CITIFILE A.01.01
#Momentum: B.12.00.024 (*) built: Jan 14 2016 
#Momentum Date and Time: Sat Jun 29 17:07:14 2019

NAME Momentum.SP

#  mode: RF    project: proj    reference: S_50

#eesof Port[1] P2
#eesof Port[2] P3
#eesof Port[3] P4
#eesof Port[4] P5
#eesof Port[5] P6

CONSTANT NBR_OF_PORTS 5

CONSTANT NORMALIZATION 1

VAR freq MAG 4

DATA S[1,1] RI
DATA S[1,2] RI
DATA S[1,3] RI
DATA S[1,4] RI
DATA S[1,5] RI
DATA S[2,1] RI
DATA S[2,2] RI
DATA S[2,3] RI
DATA S[2,4] RI
DATA S[2,5] RI
DATA S[3,1] RI
DATA S[3,2] RI
DATA S[3,3] RI
DATA S[3,4] RI
DATA S[3,5] RI
DATA S[4,1] RI
DATA S[4,2] RI
DATA S[4,3] RI
DATA S[4,4] RI
DATA S[4,5] RI
DATA S[5,1] RI
DATA S[5,2] RI
DATA S[5,3] RI
DATA S[5,4] RI
DATA S[5,5] RI
DATA PORTZ[1] RI
DATA PORTZ[2] RI
DATA PORTZ[3] RI
DATA PORTZ[4] RI
DATA PORTZ[5] RI

VAR_LIST_BEGIN
	 2400000000
	 2433333333
	 2466666667
	 2500000000
VAR_LIST_END

BEGIN
	 0.574141521,	 0.630056729
	 0.595729047,	 0.614960099
	 0.616218318,	 0.599501958
	 0.635738705,	 0.583710822
END
BEGIN
	 0.00870135468,	-0.273606174
	 0.0050614336,	-0.270020987
	 0.00201228964,	-0.266559852
	-0.000519911548,	-0.263174939
END
BEGIN
	 0.00828756296,	-0.278311664
	 0.00451251184,	-0.274820547
	 0.00132598818,	-0.271451845
	-0.00134600924,	-0.268157942
END
BEGIN
	 0.209249326,	-0.100512843
	 0.204277416,	-0.103963818
	 0.199291691,	-0.107448597
	 0.194262087,	-0.110941064
END
BEGIN
	 0.209816936,	-0.104879132
	 0.204668417,	-0.108452767
	 0.199499608,	-0.112057529
	 0.19428003,	-0.11566756
END
BEGIN
	 0.00870135468,	-0.273606174
	 0.0050614336,	-0.270020987
	 0.00201228964,	-0.266559852
	-0.000519911548,	-0.263174939
END
BEGIN
	-0.049128091,	-0.167014983
	-0.0574520237,	-0.175144698
	-0.0660264865,	-0.183353431
	-0.0747824242,	-0.191628264
END
BEGIN
	 0.0612808846,	 0.0448465395
	 0.0673324874,	 0.0464084417
	 0.07360766,	 0.0473588727
	 0.0801215453,	 0.0476870354
END
BEGIN
	 0.817483703,	-0.0872604546
	 0.81061082,	-0.0927403018
	 0.803190487,	-0.0974945735
	 0.795268623,	-0.10154187
END
BEGIN
	 0.0180196879,	 0.45154073
	 0.0253997386,	 0.459608765
	 0.0326194233,	 0.467835642
	 0.0396780571,	 0.476164553
END
BEGIN
	 0.00828756296,	-0.278311664
	 0.00451251184,	-0.274820547
	 0.00132598818,	-0.271451845
	-0.00134600924,	-0.268157942
END
BEGIN
	 0.0612808846,	 0.0448465395
	 0.0673324874,	 0.0464084417
	 0.07360766,	 0.0473588727
	 0.0801215453,	 0.0476870354
END
BEGIN
	-0.0506202194,	-0.164365817
	-0.0589520642,	-0.172442613
	-0.0675376283,	-0.180596528
	-0.0763082686,	-0.18881454
END
BEGIN
	 0.0189636833,	 0.450911665
	 0.02635189,	 0.458958706
	 0.0335819364,	 0.467165614
	 0.0406537781,	 0.475475381
END
BEGIN
	 0.816768239,	-0.0864207568
	 0.809920193,	-0.0918518254
	 0.802525555,	-0.0965538287
	 0.794630606,	-0.100545247
END
BEGIN
	 0.209249326,	-0.100512843
	 0.204277416,	-0.103963818
	 0.199291691,	-0.107448597
	 0.194262087,	-0.110941064
END
BEGIN
	 0.817483703,	-0.0872604546
	 0.81061082,	-0.0927403018
	 0.803190487,	-0.0974945735
	 0.795268623,	-0.10154187
END
BEGIN
	 0.0189636833,	 0.450911665
	 0.02635189,	 0.458958706
	 0.0335819364,	 0.467165614
	 0.0406537781,	 0.475475381
END
BEGIN
	-0.0486804107,	-0.206090167
	-0.0515275389,	-0.210545454
	-0.0542464598,	-0.215047663
	-0.0568368354,	-0.219554062
END
BEGIN
	 0.118758975,	-0.0306933609
	 0.127466455,	-0.0250531252
	 0.136680614,	-0.0197878341
	 0.146374499,	-0.0148827219
END
BEGIN
	 0.209816936,	-0.104879132
	 0.204668417,	-0.108452767
	 0.199499608,	-0.112057529
	 0.19428003,	-0.11566756
END
BEGIN
	 0.0180196879,	 0.45154073
	 0.0253997386,	 0.459608765
	 0.0326194233,	 0.467835642
	 0.0396780571,	 0.476164553
END
BEGIN
	 0.816768239,	-0.0864207568
	 0.809920193,	-0.0918518254
	 0.802525555,	-0.0965538287
	 0.794630606,	-0.100545247
END
BEGIN
	 0.118758975,	-0.0306933609
	 0.127466455,	-0.0250531252
	 0.136680614,	-0.0197878341
	 0.146374499,	-0.0148827219
END
BEGIN
	-0.0485930148,	-0.20523456
	-0.0513999912,	-0.209657532
	-0.0540757846,	-0.214123693
	-0.0566187709,	-0.218590255
END
BEGIN
	 50 ,	 0 
	 50 ,	 0 
	 50 ,	 0 
	 50 ,	 0 
END
BEGIN
	 50 ,	 0 
	 50 ,	 0 
	 50 ,	 0 
	 50 ,	 0 
END
BEGIN
	 50 ,	 0 
	 50 ,	 0 
	 50 ,	 0 
	 50 ,	 0 
END
BEGIN
	 50 ,	 0 
	 50 ,	 0 
	 50 ,	 0 
	 50 ,	 0 
END
BEGIN
	 50 ,	 0 
	 50 ,	 0 
	 50 ,	 0 
	 50 ,	 0 
END
