CITIFILE A.01.01
#Momentum: B.12.00.024 (*) built: Jan 14 2016 
#Momentum Date and Time: Tue Jun 14 20:35:18 2022

NAME Momentum.SP

#  mode: RF    project: proj    reference: S_50

#eesof Port[1] P1
#eesof Port[2] P2
#eesof Port[3] P3
#eesof Port[4] R2_P1

CONSTANT NBR_OF_PORTS 4

CONSTANT NORMALIZATION 1

VAR freq MAG 6

DATA S[1,1] RI
DATA S[1,2] RI
DATA S[1,3] RI
DATA S[1,4] RI
DATA S[2,1] RI
DATA S[2,2] RI
DATA S[2,3] RI
DATA S[2,4] RI
DATA S[3,1] RI
DATA S[3,2] RI
DATA S[3,3] RI
DATA S[3,4] RI
DATA S[4,1] RI
DATA S[4,2] RI
DATA S[4,3] RI
DATA S[4,4] RI
DATA PORTZ[1] RI
DATA PORTZ[2] RI
DATA PORTZ[3] RI
DATA PORTZ[4] RI

VAR_LIST_BEGIN
	 1000000000
	 1222222222
	 1666666667
	 2333333333
	 2777777778
	 3000000000
VAR_LIST_END

BEGIN
	-0.162941906,	 0.23261506
	-0.0969290748,	 0.239159553
	 0.0209303496,	 0.187779442
	 0.0619841307,	-0.00414740711
	-0.0497826841,	-0.114509465
	-0.137719107,	-0.130113237
END
BEGIN
	 0.25304981,	-0.624818024
	 0.0794076489,	-0.673657079
	-0.283457074,	-0.626212375
	-0.661752852,	-0.212566375
	-0.665980809,	 0.174407187
	-0.583635701,	 0.349101164
END
BEGIN
	 0.252580157,	-0.624591037
	 0.0789879455,	-0.673324135
	-0.283728125,	-0.62572845
	-0.661788911,	-0.211996986
	-0.665947111,	 0.17501525
	-0.583600858,	 0.349788749
END
BEGIN
	 0.000390720713 ,	 -0.000204582245 
	 0.000327118474 ,	 -0.000281001885 
	 0.000171564118 ,	 -0.000344561896 
	 2.81435858e-005 ,	 -0.00023615807 
	 0.000133764771 ,	 -0.000124323995 
	 0.000277025046 ,	 -0.000118627301 
END
BEGIN
	 0.25304981,	-0.624818024
	 0.0794076489,	-0.673657079
	-0.283457074,	-0.626212375
	-0.661752852,	-0.212566375
	-0.665980809,	 0.174407187
	-0.583635701,	 0.349101164
END
BEGIN
	-0.0733514801,	 0.0653299222
	-0.0863499175,	 0.0713039303
	-0.0824431427,	 0.115168245
	 0.00719190507,	 0.132720203
	 0.0390011142,	 0.0675546646
	 0.0219830039,	 0.0302485322
END
BEGIN
	 0.116344267,	-0.338748342
	 0.0482245636,	-0.318799912
	-0.0401605079,	-0.250552768
	-0.0563944978,	-0.176480298
	-0.0621961171,	-0.193007094
	-0.0845650762,	-0.209582718
END
BEGIN
	 0.623243843,	-0.0970882733
	 0.610660301,	-0.197661358
	 0.543611806,	-0.364649257
	 0.375578716,	-0.551123075
	 0.225127604,	-0.635174802
	 0.137133231,	-0.662591869
END
BEGIN
	 0.252580157,	-0.624591037
	 0.0789879455,	-0.673324135
	-0.283728125,	-0.62572845
	-0.661788911,	-0.211996986
	-0.665947111,	 0.17501525
	-0.583600858,	 0.349788749
END
BEGIN
	 0.116344267,	-0.338748342
	 0.0482245636,	-0.318799912
	-0.0401605079,	-0.250552768
	-0.0563944978,	-0.176480298
	-0.0621961171,	-0.193007094
	-0.0845650762,	-0.209582718
END
BEGIN
	-0.0728818973,	 0.0651700031
	-0.0859282748,	 0.0710476345
	-0.08219155,	 0.114790181
	 0.00710896555,	 0.132462233
	 0.0388550394,	 0.0676491118
	 0.0219519755,	 0.0305794873
END
BEGIN
	-0.623696586,	 0.0973127991
	-0.611055944,	 0.198010418
	-0.543781797,	 0.365185149
	-0.375214956,	 0.551605883
	-0.224470511,	 0.63527071
	-0.136429521,	 0.66238732
END
BEGIN
	 0.000390720713 ,	 -0.000204582245 
	 0.000327118474 ,	 -0.000281001885 
	 0.000171564118 ,	 -0.000344561896 
	 2.81435858e-005 ,	 -0.00023615807 
	 0.000133764771 ,	 -0.000124323995 
	 0.000277025046 ,	 -0.000118627301 
END
BEGIN
	 0.623243843,	-0.0970882733
	 0.610660301,	-0.197661358
	 0.543611806,	-0.364649257
	 0.375578716,	-0.551123075
	 0.225127604,	-0.635174802
	 0.137133231,	-0.662591869
END
BEGIN
	-0.623696586,	 0.0973127991
	-0.611055944,	 0.198010418
	-0.543781797,	 0.365185149
	-0.375214956,	 0.551605883
	-0.224470511,	 0.63527071
	-0.136429521,	 0.66238732
END
BEGIN
	 0.299505306,	 0.328003382
	 0.333253006,	 0.238939252
	 0.349702697,	 0.103386524
	 0.306840558,	-0.0464668525
	 0.239495343,	-0.128524914
	 0.190303805,	-0.166116486
END
BEGIN
	 50 ,	 0 
	 50 ,	 0 
	 50 ,	 0 
	 50 ,	 0 
	 50 ,	 0 
	 50 ,	 0 
END
BEGIN
	 50 ,	 0 
	 50 ,	 0 
	 50 ,	 0 
	 50 ,	 0 
	 50 ,	 0 
	 50 ,	 0 
END
BEGIN
	 50 ,	 0 
	 50 ,	 0 
	 50 ,	 0 
	 50 ,	 0 
	 50 ,	 0 
	 50 ,	 0 
END
BEGIN
	 50 ,	 0 
	 50 ,	 0 
	 50 ,	 0 
	 50 ,	 0 
	 50 ,	 0 
	 50 ,	 0 
END
