CITIFILE A.01.01
#Momentum: B.12.00.024 (*) built: Jan 14 2016 
#Momentum Date and Time: Tue Jun 14 20:35:18 2022

NAME Momentum.SP

#  mode: RF    reference: S_50

#eesof Port[1] P1
#eesof Port[2] P2
#eesof Port[3] P3
#eesof Port[4] R2_P1

CONSTANT NBR_OF_PORTS 4

CONSTANT NORMALIZATION 1

VAR freq MAG 181

DATA S[1,1] RI
DATA S[1,2] RI
DATA S[1,3] RI
DATA S[1,4] RI
DATA S[2,1] RI
DATA S[2,2] RI
DATA S[2,3] RI
DATA S[2,4] RI
DATA S[3,1] RI
DATA S[3,2] RI
DATA S[3,3] RI
DATA S[3,4] RI
DATA S[4,1] RI
DATA S[4,2] RI
DATA S[4,3] RI
DATA S[4,4] RI
DATA PORTZ[1] RI
DATA PORTZ[2] RI
DATA PORTZ[3] RI
DATA PORTZ[4] RI

VAR_LIST_BEGIN
	 1000000000
	 1013888889
	 1027777778
	 1041666667
	 1055555556
	 1069444444
	 1083333333
	 1097222222
	 1111111111
	 1125000000
	 1138888889
	 1152777778
	 1166666667
	 1180555555
	 1194444444
	 1208333333
	 1222222222
	 1236111111
	 1250000000
	 1263888889
	 1277777778
	 1291666667
	 1305555555
	 1319444444
	 1333333333
	 1347222222
	 1361111111
	 1375000000
	 1388888889
	 1402777778
	 1416666667
	 1430555556
	 1444444445
	 1458333333
	 1472222222
	 1486111111
	 1500000000
	 1513888889
	 1527777778
	 1541666667
	 1555555556
	 1569444445
	 1583333334
	 1597222222
	 1611111111
	 1625000000
	 1638888889
	 1652777778
	 1666666667
	 1677083334
	 1687500000
	 1697916667
	 1708333334
	 1718750000
	 1729166667
	 1739583334
	 1750000000
	 1760416667
	 1770833334
	 1781250000
	 1791666667
	 1802083334
	 1812500000
	 1822916667
	 1833333334
	 1843750000
	 1854166667
	 1864583333
	 1875000000
	 1885416667
	 1895833333
	 1906250000
	 1916666667
	 1927083333
	 1937500000
	 1947916667
	 1958333333
	 1968750000
	 1979166667
	 1989583333
	 2000000000
	 2010416667
	 2020833333
	 2031250000
	 2041666667
	 2052083333
	 2062500000
	 2072916667
	 2083333333
	 2093750000
	 2104166667
	 2114583333
	 2125000000
	 2135416667
	 2145833333
	 2156250000
	 2166666667
	 2177083333
	 2187500000
	 2197916666
	 2208333333
	 2218750000
	 2229166666
	 2239583333
	 2250000000
	 2260416666
	 2270833333
	 2281250000
	 2291666666
	 2302083333
	 2312500000
	 2322916666
	 2333333333
	 2347222222
	 2361111111
	 2375000000
	 2388888889
	 2402777778
	 2416666666
	 2430555555
	 2444444444
	 2458333333
	 2472222222
	 2486111111
	 2500000000
	 2513888889
	 2527777778
	 2541666667
	 2555555556
	 2569444444
	 2583333333
	 2597222222
	 2611111111
	 2625000000
	 2638888889
	 2652777778
	 2666666667
	 2673611111
	 2680555556
	 2687500000
	 2694444445
	 2701388889
	 2708333333
	 2715277778
	 2722222222
	 2729166667
	 2736111111
	 2743055556
	 2750000000
	 2756944445
	 2763888889
	 2770833334
	 2777777778
	 2784722222
	 2791666667
	 2798611111
	 2805555556
	 2812500000
	 2819444445
	 2826388889
	 2833333334
	 2840277778
	 2847222222
	 2854166667
	 2861111111
	 2868055556
	 2875000000
	 2881944445
	 2888888889
	 2895833333
	 2902777778
	 2909722222
	 2916666667
	 2923611111
	 2930555556
	 2937500000
	 2944444445
	 2958333333
	 2972222222
	 2986111111
	 3000000000
VAR_LIST_END

BEGIN
	-0.16294,	 0.23261
	-0.15888,	 0.23364
	-0.15482,	 0.23458
	-0.15073,	 0.23545
	-0.14664,	 0.23623
	-0.14253,	 0.23693
	-0.13842,	 0.23755
	-0.13429,	 0.23808
	-0.13016,	 0.23853
	-0.12603,	 0.2389
	-0.12189,	 0.23918
	-0.11776,	 0.23938
	-0.11362,	 0.2395
	-0.10948,	 0.23952
	-0.10535,	 0.23947
	-0.10122,	 0.23933
	-0.097106,	 0.2391
	-0.092994,	 0.23879
	-0.088892,	 0.23839
	-0.084802,	 0.23791
	-0.080726,	 0.23734
	-0.076665,	 0.23669
	-0.07262,	 0.23595
	-0.068594,	 0.23512
	-0.064589,	 0.23422
	-0.060606,	 0.23322
	-0.056646,	 0.23214
	-0.052712,	 0.23098
	-0.048805,	 0.22973
	-0.044927,	 0.2284
	-0.04108,	 0.22699
	-0.037265,	 0.22549
	-0.033485,	 0.22391
	-0.02974,	 0.22224
	-0.026033,	 0.2205
	-0.022366,	 0.21867
	-0.018739,	 0.21676
	-0.015156,	 0.21477
	-0.011617,	 0.21271
	-0.008125,	 0.21056
	-0.0046808,	 0.20833
	-0.0012865,	 0.20603
	 0.0020561,	 0.20364
	 0.0053454,	 0.20119
	 0.0085795,	 0.19865
	 0.011757,	 0.19604
	 0.014876,	 0.19336
	 0.017934,	 0.1906
	 0.02093,	 0.18777
	 0.023136,	 0.18561
	 0.025305,	 0.1834
	 0.027437,	 0.18115
	 0.02953,	 0.17887
	 0.031586,	 0.17654
	 0.033601,	 0.17418
	 0.035577,	 0.17178
	 0.037512,	 0.16935
	 0.039405,	 0.16687
	 0.041256,	 0.16437
	 0.043064,	 0.16182
	 0.044829,	 0.15925
	 0.046549,	 0.15663
	 0.048224,	 0.15399
	 0.049854,	 0.15131
	 0.051438,	 0.1486
	 0.052975,	 0.14586
	 0.054464,	 0.14309
	 0.055905,	 0.14028
	 0.057297,	 0.13745
	 0.058639,	 0.13459
	 0.059931,	 0.1317
	 0.061173,	 0.12878
	 0.062363,	 0.12583
	 0.063501,	 0.12286
	 0.064587,	 0.11987
	 0.06562,	 0.11684
	 0.066598,	 0.1138
	 0.067523,	 0.11073
	 0.068392,	 0.10764
	 0.069206,	 0.10453
	 0.069964,	 0.10139
	 0.070666,	 0.098246
	 0.07131,	 0.095074
	 0.071897,	 0.091884
	 0.072425,	 0.088677
	 0.072896,	 0.085453
	 0.073306,	 0.082213
	 0.073658,	 0.078959
	 0.073949,	 0.075692
	 0.07418,	 0.072412
	 0.07435,	 0.06912
	 0.074459,	 0.065817
	 0.074506,	 0.062505
	 0.07449,	 0.059184
	 0.074413,	 0.055855
	 0.074272,	 0.05252
	 0.074068,	 0.049178
	 0.0738,	 0.045833
	 0.073469,	 0.042483
	 0.073073,	 0.039132
	 0.072613,	 0.035779
	 0.072089,	 0.032426
	 0.071499,	 0.029073
	 0.070844,	 0.025723
	 0.070123,	 0.022376
	 0.069337,	 0.019033
	 0.068485,	 0.015696
	 0.067567,	 0.012365
	 0.066583,	 0.0090418
	 0.065533,	 0.005728
	 0.064416,	 0.0024243
	 0.063233,	-0.00086788
	 0.061984,	-0.0041474
	 0.060215,	-0.0084983
	 0.058328,	-0.012821
	 0.056322,	-0.017114
	 0.054199,	-0.021373
	 0.051958,	-0.025595
	 0.0496,	-0.029778
	 0.047124,	-0.033917
	 0.044532,	-0.038011
	 0.041825,	-0.042056
	 0.039002,	-0.046049
	 0.036064,	-0.049987
	 0.033013,	-0.053867
	 0.029849,	-0.057685
	 0.026573,	-0.061439
	 0.023186,	-0.065125
	 0.01969,	-0.06874
	 0.016086,	-0.072282
	 0.012374,	-0.075747
	 0.008558,	-0.079132
	 0.0046378,	-0.082433
	 0.00061557,	-0.085649
	-0.0035069,	-0.088776
	-0.0077278,	-0.091811
	-0.012045,	-0.09475
	-0.014239,	-0.096184
	-0.016457,	-0.097592
	-0.018697,	-0.098976
	-0.02096,	-0.10033
	-0.023246,	-0.10166
	-0.025554,	-0.10297
	-0.027884,	-0.10424
	-0.030235,	-0.1055
	-0.032608,	-0.10672
	-0.035001,	-0.10792
	-0.037415,	-0.10909
	-0.03985,	-0.11023
	-0.042304,	-0.11134
	-0.044778,	-0.11243
	-0.047271,	-0.11348
	-0.049783,	-0.1145
	-0.052313,	-0.1155
	-0.054862,	-0.11646
	-0.057428,	-0.1174
	-0.060012,	-0.1183
	-0.062613,	-0.11917
	-0.06523,	-0.12002
	-0.067864,	-0.12083
	-0.070513,	-0.1216
	-0.073178,	-0.12235
	-0.075858,	-0.12306
	-0.078553,	-0.12374
	-0.081262,	-0.12439
	-0.083984,	-0.12501
	-0.08672,	-0.12559
	-0.089468,	-0.12613
	-0.092229,	-0.12665
	-0.095002,	-0.12713
	-0.097787,	-0.12757
	-0.10058,	-0.12798
	-0.10338,	-0.12836
	-0.1062,	-0.1287
	-0.10903,	-0.12901
	-0.11186,	-0.12928
	-0.11471,	-0.12951
	-0.12042,	-0.12988
	-0.12616,	-0.1301
	-0.13193,	-0.13018
	-0.13771,	-0.13011
END
BEGIN
	 0.25304,	-0.62481
	 0.24269,	-0.62917
	 0.23225,	-0.63336
	 0.22174,	-0.63738
	 0.21116,	-0.64123
	 0.2005,	-0.6449
	 0.18978,	-0.64841
	 0.17899,	-0.65173
	 0.16813,	-0.65489
	 0.15722,	-0.65786
	 0.14625,	-0.66066
	 0.13522,	-0.66328
	 0.12414,	-0.66571
	 0.11302,	-0.66796
	 0.10184,	-0.67003
	 0.090632,	-0.67192
	 0.079374,	-0.67362
	 0.068079,	-0.67513
	 0.05675,	-0.67646
	 0.045389,	-0.6776
	 0.033999,	-0.67854
	 0.022584,	-0.6793
	 0.011147,	-0.67987
	-0.00030966,	-0.68025
	-0.011782,	-0.68043
	-0.023268,	-0.68042
	-0.034763,	-0.68022
	-0.046266,	-0.67982
	-0.057771,	-0.67923
	-0.069276,	-0.67844
	-0.080779,	-0.67746
	-0.092275,	-0.67628
	-0.10376,	-0.6749
	-0.11523,	-0.67333
	-0.12669,	-0.67157
	-0.13812,	-0.6696
	-0.14954,	-0.66744
	-0.16092,	-0.66508
	-0.17228,	-0.66253
	-0.18361,	-0.65978
	-0.19489,	-0.65683
	-0.20614,	-0.65369
	-0.21734,	-0.65035
	-0.2285,	-0.64681
	-0.23961,	-0.64308
	-0.25066,	-0.63915
	-0.26165,	-0.63503
	-0.27258,	-0.63072
	-0.28345,	-0.62621
	-0.29156,	-0.6227
	-0.29962,	-0.61908
	-0.30765,	-0.61536
	-0.31563,	-0.61153
	-0.32357,	-0.60759
	-0.33146,	-0.60355
	-0.33931,	-0.5994
	-0.3471,	-0.59514
	-0.35485,	-0.59078
	-0.36254,	-0.58632
	-0.37018,	-0.58175
	-0.37777,	-0.57707
	-0.38529,	-0.5723
	-0.39277,	-0.56742
	-0.40018,	-0.56244
	-0.40753,	-0.55735
	-0.41482,	-0.55217
	-0.42204,	-0.54689
	-0.4292,	-0.54151
	-0.4363,	-0.53603
	-0.44332,	-0.53045
	-0.45028,	-0.52477
	-0.45716,	-0.519
	-0.46398,	-0.51313
	-0.47071,	-0.50717
	-0.47738,	-0.50112
	-0.48396,	-0.49497
	-0.49047,	-0.48873
	-0.4969,	-0.4824
	-0.50325,	-0.47598
	-0.50951,	-0.46947
	-0.5157,	-0.46287
	-0.52179,	-0.45618
	-0.5278,	-0.44941
	-0.53373,	-0.44256
	-0.53956,	-0.43562
	-0.5453,	-0.42859
	-0.55095,	-0.42149
	-0.55651,	-0.41431
	-0.56197,	-0.40704
	-0.56734,	-0.3997
	-0.57261,	-0.39229
	-0.57779,	-0.38479
	-0.58286,	-0.37723
	-0.58783,	-0.36959
	-0.5927,	-0.36188
	-0.59747,	-0.3541
	-0.60214,	-0.34625
	-0.6067,	-0.33833
	-0.61115,	-0.33035
	-0.61549,	-0.3223
	-0.61973,	-0.31419
	-0.62386,	-0.30602
	-0.62788,	-0.29779
	-0.63178,	-0.28951
	-0.63557,	-0.28116
	-0.63925,	-0.27276
	-0.64282,	-0.26431
	-0.64627,	-0.2558
	-0.6496,	-0.24725
	-0.65281,	-0.23865
	-0.65591,	-0.23
	-0.65889,	-0.2213
	-0.66175,	-0.21256
	-0.66537,	-0.20085
	-0.66878,	-0.18906
	-0.67197,	-0.17721
	-0.67494,	-0.1653
	-0.67769,	-0.15333
	-0.68022,	-0.14131
	-0.68253,	-0.12924
	-0.68461,	-0.11713
	-0.68646,	-0.10498
	-0.68809,	-0.092795
	-0.68949,	-0.08058
	-0.69066,	-0.068339
	-0.69161,	-0.056079
	-0.69232,	-0.043802
	-0.69281,	-0.031515
	-0.69306,	-0.019221
	-0.69308,	-0.0069264
	-0.69288,	 0.0053652
	-0.69244,	 0.017649
	-0.69177,	 0.029919
	-0.69087,	 0.042172
	-0.68974,	 0.054402
	-0.68839,	 0.066605
	-0.6868,	 0.078776
	-0.68592,	 0.084847
	-0.68499,	 0.090909
	-0.68399,	 0.096961
	-0.68294,	 0.103
	-0.68184,	 0.10902
	-0.68067,	 0.11504
	-0.67946,	 0.12104
	-0.67818,	 0.12703
	-0.67685,	 0.13301
	-0.67546,	 0.13897
	-0.67402,	 0.14492
	-0.67252,	 0.15085
	-0.67097,	 0.15676
	-0.66936,	 0.16266
	-0.66769,	 0.16854
	-0.66598,	 0.1744
	-0.6642,	 0.18025
	-0.66237,	 0.18607
	-0.66049,	 0.19187
	-0.65856,	 0.19766
	-0.65657,	 0.20342
	-0.65453,	 0.20916
	-0.65243,	 0.21488
	-0.65028,	 0.22057
	-0.64808,	 0.22625
	-0.64583,	 0.2319
	-0.64352,	 0.23752
	-0.64116,	 0.24312
	-0.63875,	 0.24869
	-0.63629,	 0.25424
	-0.63378,	 0.25977
	-0.63122,	 0.26526
	-0.62861,	 0.27073
	-0.62594,	 0.27617
	-0.62323,	 0.28158
	-0.62047,	 0.28696
	-0.61766,	 0.29231
	-0.6148,	 0.29764
	-0.6119,	 0.30293
	-0.60894,	 0.30819
	-0.60289,	 0.31861
	-0.59665,	 0.32891
	-0.59023,	 0.33907
	-0.58363,	 0.3491
END
BEGIN
	 0.25258,	-0.62459
	 0.24222,	-0.62894
	 0.23179,	-0.63312
	 0.22128,	-0.63713
	 0.2107,	-0.64097
	 0.20004,	-0.64465
	 0.18932,	-0.64814
	 0.17854,	-0.65147
	 0.16768,	-0.65461
	 0.15677,	-0.65758
	 0.14581,	-0.66037
	 0.13478,	-0.66298
	 0.12371,	-0.66541
	 0.11258,	-0.66766
	 0.10141,	-0.66972
	 0.090206,	-0.6716
	 0.078952,	-0.6733
	 0.06766,	-0.6748
	 0.056335,	-0.67612
	 0.044978,	-0.67726
	 0.033592,	-0.6782
	 0.022181,	-0.67895
	 0.010748,	-0.67951
	-0.00070435,	-0.67988
	-0.012173,	-0.68006
	-0.023654,	-0.68004
	-0.035145,	-0.67983
	-0.046643,	-0.67943
	-0.058144,	-0.67883
	-0.069644,	-0.67804
	-0.081142,	-0.67705
	-0.092633,	-0.67587
	-0.10411,	-0.67449
	-0.11558,	-0.67292
	-0.12703,	-0.67114
	-0.13846,	-0.66917
	-0.14987,	-0.66701
	-0.16125,	-0.66465
	-0.17261,	-0.66209
	-0.18393,	-0.65933
	-0.19521,	-0.65638
	-0.20645,	-0.65323
	-0.21765,	-0.64989
	-0.2288,	-0.64635
	-0.2399,	-0.64261
	-0.25095,	-0.63868
	-0.26193,	-0.63455
	-0.27286,	-0.63024
	-0.28372,	-0.62572
	-0.29183,	-0.62221
	-0.29989,	-0.61859
	-0.30791,	-0.61487
	-0.31589,	-0.61104
	-0.32382,	-0.6071
	-0.33171,	-0.60305
	-0.33955,	-0.5989
	-0.34734,	-0.59464
	-0.35508,	-0.59027
	-0.36277,	-0.58581
	-0.37041,	-0.58123
	-0.37799,	-0.57656
	-0.38551,	-0.57178
	-0.39298,	-0.5669
	-0.40039,	-0.56192
	-0.40774,	-0.55683
	-0.41502,	-0.55165
	-0.42224,	-0.54636
	-0.4294,	-0.54098
	-0.43649,	-0.5355
	-0.44351,	-0.52992
	-0.45046,	-0.52424
	-0.45734,	-0.51847
	-0.46415,	-0.5126
	-0.47088,	-0.50663
	-0.47754,	-0.50058
	-0.48413,	-0.49443
	-0.49063,	-0.48819
	-0.49706,	-0.48185
	-0.5034,	-0.47543
	-0.50966,	-0.46892
	-0.51584,	-0.46232
	-0.52193,	-0.45563
	-0.52794,	-0.44886
	-0.53386,	-0.44201
	-0.53969,	-0.43507
	-0.54543,	-0.42804
	-0.55107,	-0.42094
	-0.55663,	-0.41375
	-0.56209,	-0.40649
	-0.56745,	-0.39915
	-0.57272,	-0.39173
	-0.57789,	-0.38424
	-0.58296,	-0.37667
	-0.58793,	-0.36903
	-0.5928,	-0.36132
	-0.59756,	-0.35354
	-0.60222,	-0.34569
	-0.60678,	-0.33777
	-0.61123,	-0.32979
	-0.61557,	-0.32174
	-0.6198,	-0.31363
	-0.62393,	-0.30546
	-0.62794,	-0.29723
	-0.63184,	-0.28894
	-0.63563,	-0.2806
	-0.63931,	-0.2722
	-0.64287,	-0.26374
	-0.64632,	-0.25524
	-0.64965,	-0.24668
	-0.65286,	-0.23808
	-0.65595,	-0.22943
	-0.65893,	-0.22073
	-0.66178,	-0.21199
	-0.6654,	-0.20028
	-0.66881,	-0.18849
	-0.672,	-0.17664
	-0.67496,	-0.16473
	-0.67771,	-0.15276
	-0.68024,	-0.14074
	-0.68254,	-0.12867
	-0.68462,	-0.11655
	-0.68647,	-0.1044
	-0.68809,	-0.09222
	-0.68949,	-0.080004
	-0.69066,	-0.067763
	-0.6916,	-0.055502
	-0.69232,	-0.043225
	-0.6928,	-0.030936
	-0.69305,	-0.018642
	-0.69307,	-0.0063461
	-0.69286,	 0.0059466
	-0.69242,	 0.018231
	-0.69175,	 0.030503
	-0.69085,	 0.042757
	-0.68972,	 0.054989
	-0.68836,	 0.067193
	-0.68677,	 0.079365
	-0.68589,	 0.085438
	-0.68496,	 0.091501
	-0.68396,	 0.097553
	-0.68291,	 0.10359
	-0.68181,	 0.10962
	-0.68064,	 0.11564
	-0.67943,	 0.12164
	-0.67815,	 0.12763
	-0.67682,	 0.13361
	-0.67543,	 0.13957
	-0.67399,	 0.14552
	-0.67249,	 0.15145
	-0.67093,	 0.15737
	-0.66933,	 0.16327
	-0.66766,	 0.16915
	-0.66594,	 0.17501
	-0.66417,	 0.18085
	-0.66234,	 0.18668
	-0.66046,	 0.19249
	-0.65852,	 0.19827
	-0.65653,	 0.20403
	-0.65449,	 0.20978
	-0.65239,	 0.2155
	-0.65025,	 0.2212
	-0.64804,	 0.22687
	-0.64579,	 0.23252
	-0.64348,	 0.23815
	-0.64113,	 0.24375
	-0.63872,	 0.24933
	-0.63626,	 0.25488
	-0.63374,	 0.2604
	-0.63118,	 0.2659
	-0.62857,	 0.27137
	-0.62591,	 0.27681
	-0.6232,	 0.28223
	-0.62044,	 0.28761
	-0.61763,	 0.29296
	-0.61477,	 0.29829
	-0.61186,	 0.30358
	-0.60891,	 0.30885
	-0.60286,	 0.31928
	-0.59662,	 0.32958
	-0.5902,	 0.33975
	-0.5836,	 0.34978
END
BEGIN
	 0.000390720713 ,	 -0.000204582245 
	 0.00038912463 ,	 -0.000209520491 
	 0.000387381588 ,	 -0.000214482515 
	 0.000385487789 ,	 -0.000219462032 
	 0.000383439735 ,	 -0.000224452394 
	 0.000381234266 ,	 -0.00022944661 
	 0.000378868588 ,	 -0.000234437361 
	 0.000376340315 ,	 -0.00023941702 
	 0.000373647494 ,	 -0.000244377677 
	 0.000370788642 ,	 -0.000249311167 
	 0.000367762769 ,	 -0.0002542091 
	 0.000364569413 ,	 -0.000259062899 
	 0.000361208656 ,	 -0.000263863838 
	 0.000357681149 ,	 -0.000268603081 
	 0.000353988131 ,	 -0.000273271728 
	 0.000350131438 ,	 -0.000277860863 
	 0.000346113514 ,	 -0.0002823616 
	 0.000341937415 ,	 -0.000286765136 
	 0.000337606809 ,	 -0.000291062799 
	 0.000333125969 ,	 -0.000295246104 
	 0.000328499761 ,	 -0.000299306801 
	 0.000323733629 ,	 -0.000303236928 
	 0.000318833575 ,	 -0.000307028857 
	 0.000313806128 ,	 -0.000310675349 
	 0.000308658319 ,	 -0.00031416959 
	 0.000303397636 ,	 -0.000317505238 
	 0.000298031995 ,	 -0.000320676461 
	 0.000292569686 ,	 -0.000323677967 
	 0.000287019333 ,	 -0.00032650504 
	 0.000281389842 ,	 -0.000329153559 
	 0.000275690346 ,	 -0.000331620018 
	 0.00026993016 ,	 -0.000333901543 
	 0.000264118718 ,	 -0.000335995898 
	 0.000258265525 ,	 -0.000337901488 
	 0.000252380102 ,	 -0.00033961736 
	 0.000246471933 ,	 -0.00034114319 
	 0.000240550414 ,	 -0.000342479276 
	 0.000234624804 ,	 -0.000343626518 
	 0.000228704182 ,	 -0.000344586396 
	 0.000222797399 ,	 -0.000345360947 
	 0.000216913043 ,	 -0.000345952735 
	 0.000211059402 ,	 -0.000346364818 
	 0.00020524443 ,	 -0.000346600715 
	 0.000199475723 ,	 -0.00034666437 
	 0.000193760491 ,	 -0.000346560113 
	 0.000188105542 ,	 -0.000346292622 
	 0.000182517264 ,	 -0.000345866881 
	 0.000177001616 ,	 -0.000345288144 
	 0.000171564118 ,	 -0.000344561896 
	 0.000167540352 ,	 -0.000343923812 
	 0.000163565392 ,	 -0.000343208393 
	 0.000159641075 ,	 -0.000342418131 
	 0.000155769105 ,	 -0.000341555549 
	 0.000151951045 ,	 -0.000340623193 
	 0.000148188326 ,	 -0.000339623626 
	 0.000144482246 ,	 -0.000338559419 
	 0.000140833973 ,	 -0.000337433142 
	 0.00013724455 ,	 -0.000336247363 
	 0.000133714896 ,	 -0.000335004635 
	 0.000130245814 ,	 -0.000333707496 
	 0.000126837988 ,	 -0.000332358461 
	 0.000123491995 ,	 -0.000330960014 
	 0.000120208303 ,	 -0.00032951461 
	 0.000116987281 ,	 -0.000328024666 
	 0.000113829197 ,	 -0.000326492555 
	 0.00011073423 ,	 -0.000324920611 
	 0.000107702469 ,	 -0.000323311116 
	 0.000104733921 ,	 -0.000321666306 
	 0.000101828513 ,	 -0.000319988359 
	 9.89860988e-005 ,	 -0.000318279404 
	 9.62064632e-005 ,	 -0.00031654151 
	 9.3489326e-005 ,	 -0.000314776688 
	 9.08343467e-005 ,	 -0.000312986891 
	 8.82411289e-005 ,	 -0.000311174013 
	 8.57092248e-005 ,	 -0.000309339883 
	 8.32381389e-005 ,	 -0.000307486272 
	 8.08273324e-005 ,	 -0.00030561489 
	 7.84762272e-005 ,	 -0.000303727382 
	 7.61842093e-005 ,	 -0.000301825335 
	 7.39506327e-005 ,	 -0.000299910271 
	 7.17748231e-005 ,	 -0.000297983655 
	 6.96560807e-005 ,	 -0.000296046888 
	 6.75936842e-005 ,	 -0.000294101316 
	 6.55868932e-005 ,	 -0.00029214822 
	 6.36349515e-005 ,	 -0.00029018883 
	 6.17370901e-005 ,	 -0.000288224313 
	 5.98925295e-005 ,	 -0.000286255784 
	 5.81004823e-005 ,	 -0.000284284301 
	 5.6360156e-005 ,	 -0.000282310871 
	 5.46707549e-005 ,	 -0.000280336445 
	 5.30314825e-005 ,	 -0.000278361925 
	 5.14415435e-005 ,	 -0.000276388164 
	 4.9900146e-005 ,	 -0.000274415964 
	 4.8406503e-005 ,	 -0.00027244608 
	 4.69598342e-005 ,	 -0.000270479223 
	 4.55593682e-005 ,	 -0.000268516057 
	 4.42043436e-005 ,	 -0.000266557202 
	 4.28940106e-005 ,	 -0.000264603239 
	 4.16276325e-005 ,	 -0.000262654704 
	 4.04044874e-005 ,	 -0.000260712095 
	 3.92238689e-005 ,	 -0.000258775871 
	 3.80850882e-005 ,	 -0.000256846453 
	 3.69874745e-005 ,	 -0.000254924227 
	 3.59303771e-005 ,	 -0.000253009542 
	 3.49131657e-005 ,	 -0.000251102713 
	 3.39352323e-005 ,	 -0.000249204021 
	 3.29959922e-005 ,	 -0.000247313716 
	 3.20948849e-005 ,	 -0.000245432016 
	 3.12313755e-005 ,	 -0.000243559106 
	 3.04049561e-005 ,	 -0.000241695144 
	 2.96151466e-005 ,	 -0.000239840256 
	 2.88614965e-005 ,	 -0.000237994542 
	 2.81435858e-005 ,	 -0.00023615807 
	 2.72413006e-005 ,	 -0.000233723888 
	 2.64010408e-005 ,	 -0.000231306236 
	 2.56220938e-005 ,	 -0.000228905053 
	 2.49038677e-005 ,	 -0.000226520194 
	 2.42458991e-005 ,	 -0.000224151431 
	 2.36478634e-005 ,	 -0.000221798452 
	 2.31095843e-005 ,	 -0.000219460857 
	 2.26310466e-005 ,	 -0.000217138161 
	 2.22124092e-005 ,	 -0.000214829791 
	 2.18540214e-005 ,	 -0.00021253508 
	 2.15564404e-005 ,	 -0.000210253264 
	 2.13204525e-005 ,	 -0.000207983477 
	 2.11470974e-005 ,	 -0.000205724746 
	 2.10376964e-005 ,	 -0.000203475979 
	 2.09938857e-005 ,	 -0.000201235961 
	 2.10176555e-005 ,	 -0.000199003336 
	 2.1111396e-005 ,	 -0.0001967766 
	 2.1277952e-005 ,	 -0.00019455408 
	 2.15206885e-005 ,	 -0.000192333915 
	 2.18435681e-005 ,	 -0.000190114036 
	 2.22512455e-005 ,	 -0.000187892135 
	 2.27491809e-005 ,	 -0.000185665635 
	 2.33437783e-005 ,	 -0.00018343165 
	 2.40425551e-005 ,	 -0.000181186939 
	 2.44337147e-005 ,	 -0.000180059438 
	 2.48543507e-005 ,	 -0.000178927851 
	 2.53058172e-005 ,	 -0.000177791646 
	 2.57895869e-005 ,	 -0.000176650257 
	 2.63072627e-005 ,	 -0.00017550308 
	 2.68605919e-005 ,	 -0.000174349471 
	 2.74514806e-005 ,	 -0.000173188741 
	 2.80820115e-005 ,	 -0.000172020154 
	 2.87544631e-005 ,	 -0.000170842919 
	 2.94713317e-005 ,	 -0.000169656192 
	 3.02353572e-005 ,	 -0.000168459065 
	 3.10495515e-005 ,	 -0.000167250561 
	 3.19172318e-005 ,	 -0.000166029631 
	 3.28420587e-005 ,	 -0.000164795145 
	 3.38280802e-005 ,	 -0.000163545884 
	 3.48797824e-005 ,	 -0.000162280533 
	 3.60021489e-005 ,	 -0.000160997671 
	 3.72007297e-005 ,	 -0.000159695761 
	 3.84817218e-005 ,	 -0.000158373139 
	 3.98520644e-005 ,	 -0.000157028003 
	 4.13195511e-005 ,	 -0.0001556584 
